
**** 03/20/15 16:07:49 ***** PSpice 16.6.0 (October 2012) ***** ID# 0 ********

 ** Profile: "SCHEMATIC1-bnjkj"  [ C:\USERS\FPS7806\DESKTOP\lab02\lab2-PSpiceFiles\SCHEMATIC1\bnjkj.sim ] 


 ****     CIRCUIT DESCRIPTION


******************************************************************************




** Creating circuit file "bnjkj.cir" 
** WARNING: THIS AUTOMATICALLY GENERATED FILE MAY BE OVERWRITTEN BY SUBSEQUENT SIMULATIONS

*Libraries: 
* Profile Libraries :
* Local Libraries :
.LIB "../../../lab2-pspicefiles/lab2.lib" 
* From [PSPICE NETLIST] section of C:\Users\fps7806\cdssetup\OrCAD_PSpice/16.6.0/PSpice.ini file:
.lib "nom.lib" 

*Analysis directives: 
.TRAN  0 1ms 0 
.STEP LIN PARAM RVAL 1000 2500 500 
.OPTIONS ADVCONV
.PROBE64 V(alias(*)) I(alias(*)) W(alias(*)) D(alias(*)) NOISE(alias(*)) 
.INC "..\SCHEMATIC1.net" 



**** INCLUDING SCHEMATIC1.net ****
* source LAB2
M_M1         N00112 N00112 N00116 N00116 Mbreakn  
+ L=10um  
+ W=1000um         
M_M2         N01631 N00112 N00116 N00116 Mbreakn  
+ L=10um  
+ W=1000um         
R_R1         N01604 N00263  3756 TC=0,0 
R_R2         N01671 N00263  100 TC=0,0 
V_V1         N00263 0 10Vdc
V_V2         0 N00116 10Vdc
M_M4         N01159 N01159 N01163 N01163 Mbreakn  
+ L=10um  
+ W=1000um         
V_V3         N01259 0 5Vdc
M_M3         N01253 N01159 N01163 N01163 Mbreakn  
+ L=10um  
+ W=1000um         
R_R3         N01159 N01259  1.8778k TC=0,0 
R_R4         N01253 N01259  125 TC=0,0 
V_V4         0 N01163 5Vdc
M_M5         N01671 N01604 N00112 N01529 Mbreakn  
+ L=10um  
+ W=1000um         
M_M6         N01604 N01604 N01631 N01600 Mbreakn  
+ L=10um  
+ W=1000um         

**** RESUMING bnjkj.cir ****
.END

**** 03/20/15 16:07:49 ***** PSpice 16.6.0 (October 2012) ***** ID# 0 ********

 ** Profile: "SCHEMATIC1-bnjkj"  [ C:\USERS\FPS7806\DESKTOP\lab02\lab2-PSpiceFiles\SCHEMATIC1\bnjkj.sim ] 


 ****     MOSFET MODEL PARAMETERS


******************************************************************************




               Mbreakn         
               NMOS            
       LEVEL    1            
           L  100.000000E-06 
           W  100.000000E-06 
         VTO     .7          
          KP   25.000000E-06 
       GAMMA     .9          
         PHI     .6          
      LAMBDA     .02         
          IS   10.000000E-15 
          JS    0            
          PB     .8          
        PBSW     .8          
          CJ    0            
        CJSW    0            
        CGSO    0            
        CGDO    0            
        CGBO    0            
         TOX   90.000000E-09 
          XJ    0            
       UCRIT   10.000000E+03 
      DIOMOD    1            
         VFB    0            
        LETA    0            
        WETA    0            
          U0    0            
        TEMP    0            
         VDD    5            
       XPART    0            
       NPEAK    3.700000E+15 
     VERSION    2            


**** 03/20/15 16:07:49 ***** PSpice 16.6.0 (October 2012) ***** ID# 0 ********

 ** Profile: "SCHEMATIC1-bnjkj"  [ C:\USERS\FPS7806\DESKTOP\lab02\lab2-PSpiceFiles\SCHEMATIC1\bnjkj.sim ] 


 ****     INITIAL TRANSIENT SOLUTION       TEMPERATURE =   27.000 DEG C

 ****     CURRENT STEP                     PARAM RVAL =    1.0000E+03


******************************************************************************



 NODE   VOLTAGE     NODE   VOLTAGE     NODE   VOLTAGE     NODE   VOLTAGE


(N00112)   -7.5295 (N00116)  -10.0000 (N00263)   10.0000 (N01159)   -2.5490     

(N01163)   -5.0000 (N01253)    4.4306 (N01259)    5.0000 (N01529)   -7.3375     

(N01600)   -7.6244 (N01604)   -5.3756 (N01631)   -7.7630 (N01671)    9.5888 




    VOLTAGE SOURCE CURRENTS
    NAME         CURRENT

    V_V1        -8.206E-03
    V_V2        -8.206E-03
    V_V3        -8.575E-03
    V_V4        -8.575E-03

    TOTAL POWER DISSIPATION   2.50E-01  WATTS


**** 03/20/15 16:07:49 ***** PSpice 16.6.0 (October 2012) ***** ID# 0 ********

 ** Profile: "SCHEMATIC1-bnjkj"  [ C:\USERS\FPS7806\DESKTOP\lab02\lab2-PSpiceFiles\SCHEMATIC1\bnjkj.sim ] 


 ****     INITIAL TRANSIENT SOLUTION       TEMPERATURE =   27.000 DEG C

 ****     CURRENT STEP                     PARAM RVAL =    1.5000E+03


******************************************************************************



 NODE   VOLTAGE     NODE   VOLTAGE     NODE   VOLTAGE     NODE   VOLTAGE


(N00112)   -7.5295 (N00116)  -10.0000 (N00263)   10.0000 (N01159)   -2.5490     

(N01163)   -5.0000 (N01253)    4.4306 (N01259)    5.0000 (N01529)   -7.3375     

(N01600)   -7.6244 (N01604)   -5.3756 (N01631)   -7.7630 (N01671)    9.5888 




    VOLTAGE SOURCE CURRENTS
    NAME         CURRENT

    V_V1        -8.206E-03
    V_V2        -8.206E-03
    V_V3        -8.575E-03
    V_V4        -8.575E-03

    TOTAL POWER DISSIPATION   2.50E-01  WATTS


**** 03/20/15 16:07:49 ***** PSpice 16.6.0 (October 2012) ***** ID# 0 ********

 ** Profile: "SCHEMATIC1-bnjkj"  [ C:\USERS\FPS7806\DESKTOP\lab02\lab2-PSpiceFiles\SCHEMATIC1\bnjkj.sim ] 


 ****     INITIAL TRANSIENT SOLUTION       TEMPERATURE =   27.000 DEG C

 ****     CURRENT STEP                     PARAM RVAL =    2.0000E+03


******************************************************************************



 NODE   VOLTAGE     NODE   VOLTAGE     NODE   VOLTAGE     NODE   VOLTAGE


(N00112)   -7.5295 (N00116)  -10.0000 (N00263)   10.0000 (N01159)   -2.5490     

(N01163)   -5.0000 (N01253)    4.4306 (N01259)    5.0000 (N01529)   -7.3375     

(N01600)   -7.6244 (N01604)   -5.3756 (N01631)   -7.7630 (N01671)    9.5888 




    VOLTAGE SOURCE CURRENTS
    NAME         CURRENT

    V_V1        -8.206E-03
    V_V2        -8.206E-03
    V_V3        -8.575E-03
    V_V4        -8.575E-03

    TOTAL POWER DISSIPATION   2.50E-01  WATTS


**** 03/20/15 16:07:49 ***** PSpice 16.6.0 (October 2012) ***** ID# 0 ********

 ** Profile: "SCHEMATIC1-bnjkj"  [ C:\USERS\FPS7806\DESKTOP\lab02\lab2-PSpiceFiles\SCHEMATIC1\bnjkj.sim ] 


 ****     INITIAL TRANSIENT SOLUTION       TEMPERATURE =   27.000 DEG C

 ****     CURRENT STEP                     PARAM RVAL =    2.5000E+03


******************************************************************************



 NODE   VOLTAGE     NODE   VOLTAGE     NODE   VOLTAGE     NODE   VOLTAGE


(N00112)   -7.5295 (N00116)  -10.0000 (N00263)   10.0000 (N01159)   -2.5490     

(N01163)   -5.0000 (N01253)    4.4306 (N01259)    5.0000 (N01529)   -7.3375     

(N01600)   -7.6244 (N01604)   -5.3756 (N01631)   -7.7630 (N01671)    9.5888 




    VOLTAGE SOURCE CURRENTS
    NAME         CURRENT

    V_V1        -8.206E-03
    V_V2        -8.206E-03
    V_V3        -8.575E-03
    V_V4        -8.575E-03

    TOTAL POWER DISSIPATION   2.50E-01  WATTS



          JOB CONCLUDED

**** 03/20/15 16:07:49 ***** PSpice 16.6.0 (October 2012) ***** ID# 0 ********

 ** Profile: "SCHEMATIC1-bnjkj"  [ C:\USERS\FPS7806\DESKTOP\lab02\lab2-PSpiceFiles\SCHEMATIC1\bnjkj.sim ] 


 ****     JOB STATISTICS SUMMARY

 ****     CURRENT STEP                     PARAM RVAL =    2.5000E+03


******************************************************************************



  Total job time (using Solver 1)   =         .09
